#Parameters = {charge_param=1e-09; time_step_stability_factor=0.5; cond=1000; wakelength=10000; cpw=10}
#"Frequency / GHz"	"Z (90) [Re / Ohm]"	"Z (90) [Im / Ohm]"
#---------------------------------------------------------
0.0000000000000	-1.0987212689757	1.2358793939798e-10
0.0010239144611436	0.60938960549107	1.1840009165152
0.0020478289222872	0.51323733655573	-0.48915726930611
0.0030717433834308	-0.95708401826577	0.88810958836420
0.0040956578445743	0.90455786615464	1.7326713878168
0.0051195723057179	0.51672159532225	0.042058020263305
0.0061434867668615	-0.77811438585000	1.5957843336862
0.0071674012280051	1.1376946237845	2.1327305958997
0.0081913156891487	0.44819060979592	0.51752921639918
0.0092152301502923	-0.63830771824587	2.2534649638996
0.010239144611436	1.2991824510892	2.4979543233851
0.011263059072579	0.33688415406006	1.0122574362415
0.012286973533723	-0.50519487854802	2.9003221337767
0.013310887994867	1.4174387146274	2.8531645575347
0.014334802456010	0.21076503756810	1.5362470906829
0.015358716917154	-0.36260165081837	3.5366191172356
0.016382631378297	1.5039705607807	3.2021371698156
0.017406545839441	0.083191535944119	2.0879978827349
0.018430460300585	-0.20603120478390	4.1577024818025
0.019454374761728	1.5625554225196	3.5466831818739
0.020478289222872	-0.038552420175248	2.6647970353623
0.021502203684015	-0.035734543309272	4.7594157541856
0.022526118145159	1.5943924134225	3.8892220871560
0.023550032606302	-0.14963648401066	3.2639897705115
0.024573947067446	0.14602689598258	5.3386768710066
0.025597861528590	1.6000474809311	4.2328238883917
0.026621775989733	-0.24637692402550	3.8829475892595
0.027645690450877	0.33605521034882	5.8933821996377
0.028669604912020	1.5801895432204	4.5809503889937
0.029693519373164	-0.32576748444905	4.5189380903629
0.030717433834308	0.53069978463609	6.4222763267026
0.031741348295451	1.5358832376512	4.9372132984949
0.032765262756595	-0.38531840893830	5.1690413985795
0.033789177217738	0.72611498464584	6.9248539338496
0.034813091678882	1.4686994068721	5.3051743397486
0.035837006140025	-0.42302120605057	5.8301062470005
0.036860920601169	0.91840300218872	7.4012818931095
0.037884835062313	1.3807163597524	5.6881982940857
0.038908749523456	-0.43736528926166	6.4987724903693
0.039932663984600	1.1037299713878	7.8523556782930
0.040956578445743	1.2744961580067	6.0893359155735
0.041980492906887	-0.42736145987142	7.1715090620677
0.043004407368031	1.2784168722740	8.2794525681374
0.044028321829174	1.1530280322282	6.5112297736905
0.045052236290318	-0.39257000042715	7.8446738167957
0.046076150751461	1.4390156379946	8.6844899904082
0.047100065212605	1.0196564873523	6.9560479723645
0.048123979673749	-0.33311412416625	8.5145917765737
0.049147894134892	1.5823864669575	9.0698785777571
0.050171808596036	0.87800277623321	7.4254279882217
0.051195723057179	-0.24968619738091	9.1776352726504
0.052219637518323	1.7057625926584	9.4384713514431
0.053243551979466	0.73188009317504	7.9204427645819
0.054267466440610	-0.14353447771767	9.8303104538349
0.055291380901754	1.8068154015553	9.7935021761303
0.056315295362897	0.58520702445803	8.4415718259337
0.057339209824041	-0.016444565612391	10.469334648788
0.058363124285184	1.8836980666014	10.138519722985
0.059387038746328	0.44191479667006	8.9887003513909
0.060410953207472	0.12930235422784	11.091720976035
0.061434867668615	1.9350932208790	10.477310431917
0.062458782129759	0.30585557058345	9.5611187083032
0.063482696590902	0.29097158916475	11.694852967831
0.064506611052046	1.9602431002924	10.813826874757
0.065530525513189	0.18072232593059	10.157545991106
0.066554439974333	0.46544315377624	12.276546185987
0.067578354435477	1.9589709651809	11.152095354908
0.068602268896620	0.069960309425448	10.776154884495
0.069626183357764	0.64927430240298	12.835103090879
0.070650097818907	1.9316833374345	11.496132859764
0.071674012280051	-0.023313113732346	11.414620097243
0.072697926741195	0.83877922796342	13.369363550603
0.073721841202338	1.8793715429133	11.849861811927
0.074745755663482	-0.096374066832535	12.070166519513
0.075769670124625	1.0301095170326	13.878729503855
0.076793584585769	1.8035851646473	12.217023029328
0.077817499046912	-0.14695985498463	12.739638956644
0.078841413508056	1.2193432420382	14.363191724943
0.079865327969200	1.7064072594811	12.601095794976
0.080889242430343	-0.17331620732309	13.419571523666
0.081913156891487	1.4025759663687	14.823330696784
0.082937071352630	1.5904088904595	13.005214791064
0.083960985813774	-0.17424585241527	14.106263768956
0.084984900274918	1.5760014897128	15.260313556080
0.086008814736061	1.4585926258388	13.432110267260
0.087032729197205	-0.14913051484262	14.795873560067
0.088056643658348	1.7360100314109	15.675872389823
0.089080558119492	1.3143330954715	13.884037163915
0.090104472580635	-0.097952131564090	15.484496432157
0.091128387041779	1.8792623231281	16.072269538208
0.092152301502923	1.1612976185924	14.362729725995
0.093176215964066	-0.021295407197200	16.168263369606
0.094200130425210	2.0027730327541	16.452255490023
0.095224044886353	1.0033704175220	14.869359096452
0.096247959347497	0.079661972445172	16.843427612417
0.097271873808641	2.1039798161600	16.819012902881
0.098295788269784	0.84456975095650	15.404506820686
0.099319702730928	0.20317679503327	17.506448093849
0.10034361719207	2.1808019860495	17.176081444837
0.10136753165321	0.68894753754829	15.968147341350
0.10239144611436	0.34696708592443	18.154082761929
0.10341536057550	2.2316957058396	17.527296554680
0.10443927503665	0.54051346545734	16.559649123334
0.10546318949779	0.50826886271899	18.783453734917
0.10648710395893	2.2556850080625	17.876694511100
0.10751101842008	0.40312938454666	17.177789847130
0.10853493288122	0.68389261617563	19.392133515411
0.10955884734236	2.2524036554624	18.228434708874
0.11058276180351	0.28043773657484	17.820771280484
0.11160667626465	0.87029028400484	19.978185219599
0.11263059072579	2.2220894800819	18.586701230033
0.11365450518694	0.17576245279751	18.486269847273
0.11467841964808	1.0636350815579	20.540230450725
0.11570233410923	2.1655984548672	18.955617857058
0.11672624857037	0.092043379620681	19.171480928530
0.11775016303151	1.2599082835999	21.077477075734
0.11877407749266	2.0843870257626	19.339149621061
0.11979799195380	0.031760994469918	19.873176778240
0.12082190641494	1.4549808283847	21.589744396734
0.12184582087609	1.9804775651785	19.741020476552
0.12286973533723	-0.0031235599828654	20.587789193473
0.12389364979837	1.6447153320480	22.077483372113
0.12491756425952	1.8564320360124	20.164627172263
0.12594147872066	-0.011209659276086	21.311475675398
0.12696539318180	1.8250527300251	22.541759524680
0.12798930764295	1.7152830011307	20.612958710474
0.12901322210409	0.0082943302962571	22.040216753077
0.13003713656524	1.9921058262730	22.984251950135
0.13106105102638	1.5604808116168	21.088535564210
0.13208496548752	0.055559474964761	22.769905127086
0.13310887994867	2.1422549166698	23.407215424583
0.13413279440981	1.3958201229320	21.593341874267
0.13515670887095	0.13012232198901	23.496432303446
0.13618062333210	2.2722235252719	23.813433183733
0.13720453779324	1.2253469786993	22.128780167558
0.13822845225438	0.23088162424811	24.215793621161
0.13925236671553	2.3791568071427	24.206176033487
0.14027628117667	1.0532820665460	22.695647481682
0.14130019563781	0.35613511930019	24.924181457609
0.14232411009896	2.4607033940383	24.589121206523
0.14334802456010	0.88392528991634	23.294093296732
0.14437193902125	0.50359524897495	25.618063576305
0.14539585348239	2.5150545355390	24.966280465326
0.14641976794353	0.72155116887233	23.923627721409
0.14744368240468	0.67043995777864	26.294282692707
0.14846759686582	2.5410020701151	25.341920515893
0.14949151132696	0.57032062720345	24.583124853288
0.15051542578811	0.85337313218864	26.950129047153
0.15153934024925	2.5379719364784	25.720469490176
0.15256325471039	0.43418693829948	25.270842561205
0.15358716917154	1.0486951733042	27.583405465035
0.15461108363268	2.5060417982795	26.106416335414
0.15563499809382	0.31679780265286	25.984455890437
0.15665891255497	1.2523764149316	28.192489601015
0.15768282701611	2.4459467039273	26.504219640536
0.15870674147726	0.22141432680827	26.721109195007
0.15973065593840	1.4601489395493	28.776378714103
0.16075457039954	2.3590717952950	26.918206274091
0.16177848486069	0.15083216980326	27.477474660491
0.16280239932183	1.6675982298167	29.334721558512
0.16382631378297	2.2474275118046	27.352476122265
0.16485022824412	0.10731396967249	28.249825929000
0.16587414270526	1.8702631691965	29.867835521782
0.16689805716640	2.1136106576343	27.810805339103
0.16792197162755	0.092524604382733	29.034118309854
0.16894588608869	2.0637276093544	30.376717983788
0.16996980054984	1.9607542151483	28.296575712285
0.17099371501098	0.10750278189783	29.826090349646
0.17201762947212	2.2437437643154	30.863028761309
0.17304154393327	1.7924750905649	28.812671439055
0.17406545839441	0.15261740908656	30.621332535443
0.17508937285555	2.4062994977303	31.329054750132
0.17611328731670	1.6127711202638	29.361428208838
0.17713720177784	0.22754618330968	31.415419472710
0.17816111623898	2.5477317170907	31.777691452839
0.17918503070013	1.4259614759899	29.944574918792
0.18020894516127	0.33128500723703	32.203995603089
0.18123285962241	2.6648079352654	32.212375759979
0.18225677408356	1.2365851907141	30.563189842900
0.18328068854470	0.46216246843804	32.982882456141
0.18430460300585	2.7548117377249	32.637016157076
0.18532851746699	1.0493018915399	31.217659395756
0.18635243192813	0.61785603361709	33.748170019049
0.18737634638928	2.8155936630379	33.055919683172
0.18840026085042	0.86877983397754	31.907682441387
0.18942417531156	0.79544496963164	34.496333591431
0.19044808977271	2.8456522139663	33.473711824371
0.19147200423385	0.69961450821249	32.632256843260
0.19249591869499	0.99147268438231	35.224294358711
0.19351983315614	2.8441591956691	33.895219008069
0.19454374761728	0.54619833021314	33.389695605936
0.19556766207842	1.2020028799889	35.929515774270
0.19659157653957	2.8109910429841	34.325382875961
0.19761549100071	0.41262722802064	34.177664272445
0.19863940546186	1.4227047400616	36.610073051215
0.19966331992300	2.7467438186616	34.769159317365
0.20068723438414	0.30261371118601	34.993234045026
0.20171114884529	1.6489610258596	37.264704750770
0.20273506330643	2.6527381491607	35.231391370805
0.20375897776757	0.21938462516006	35.832923612206
0.20478289222872	1.8759443349362	37.892855531650
0.20580680668986	2.5309888738937	35.716721823085
0.20683072115100	0.16561104309643	36.692791897436
0.20785463561215	2.0987422404477	38.494704541540
0.20887855007329	2.3841804995801	36.229474842756
0.20990246453443	0.14333341619481	37.568509005788
0.21092637899558	2.3124530457385	39.071173381541
0.21195029345672	2.2156066801501	36.773564492506
0.21297420791787	0.15390281960892	38.455463429721
0.21399812237901	2.5123026140366	39.623931714184
0.21502203684015	2.0291177423343	37.352406429638
0.21604595130130	0.19794823088136	39.348857696844
0.21706986576244	2.6937522789130	40.155364694896
0.21809378022358	1.8290323204054	37.968832913840
0.21911769468473	0.27534120596134	40.243825454647
0.22014160914587	2.8526071894416	40.668548074177
0.22116552360701	1.6200601366453	38.625028617305
0.22218943806816	0.38519686171233	41.135536907127
0.22321335252930	2.9851165642586	41.167182363802
0.22423726699045	1.4071927562902	39.322468021566
0.22526118145159	0.52587058362907	42.019316121349
0.22628509591273	3.0880624097891	41.655532941455
0.22730901037388	1.1955975869106	40.061880404255
0.22833292483502	0.69498362924569	42.890758036471
0.22935683929616	3.1588457136864	42.138354295964
0.23038075375731	0.99051524327715	40.843226907103
0.23140466821845	0.88947402828400	43.745827835873
0.23242858267959	3.1955535127657	42.620780040559
0.23345249714074	0.79712552698296	41.665684938945
0.23447641160188	1.1056362746836	44.580974860355
0.23550032606302	3.1970147147250	43.108239890635
0.23652424052417	0.62044587408651	42.527668295839
0.23754815498531	1.3392092439696	45.393220835982
0.23857206944646	3.1628454961260	43.606334010408
0.23959598390760	0.46520962942804	43.426841577708
0.24061989836874	1.5854493412620	46.180237681409
0.24164381282989	3.0934589137286	44.120719930774
0.24266772729103	0.33574580860545	44.360178220043
0.24369164175217	1.8392329366710	46.940435654896
0.24471555621332	2.9900887325793	44.657000148469
0.24573947067446	0.23589067380496	45.324011315308
0.24676338513560	2.0951645338554	47.673001371320
0.24778729959675	2.8547633783697	45.220593670481
0.24881121405789	0.16888066384393	46.314119288801
0.24983512851903	2.3476981328814	48.377951199862
0.25085904298018	2.6902919058472	45.816616613485
0.25188295744132	0.13727501621848	47.325799931215
0.25290687190247	2.5912472957618	49.056137831159
0.25393078636361	2.5001948368121	46.449768124547
0.25495470082475	0.14287064011747	48.353991716770
0.25597861528590	2.8203157929753	49.709278698189
0.25700252974704	2.2886623590074	47.124233954436
0.25802644420818	0.18666863881329	49.393376224193
0.25905035866933	3.0296281500923	50.339918761682
0.26007427313047	2.0604595092345	47.843571479928
0.26109818759161	0.26881409643989	50.438500574518
0.26212210205276	3.2142421116582	50.951414087836
0.26314601651390	1.8208368595901	48.610639904315
0.26416993097504	0.38858782435915	51.483909279149
0.26519384543619	3.3696763892853	51.547876332586
0.26621775989733	1.5754258559167	49.427521252597
0.26724167435848	0.54440283119984	52.524268772004
0.26826558881962	3.4920191286574	52.134099846061
0.26928950328076	1.3301151924203	50.295459109818
0.27031341774191	0.73380899182873	53.554496656697
0.27133733220305	3.5780159136305	52.715487799978
0.27236124666419	1.0909235865303	51.214839926636
0.27338516112534	0.95354394269224	54.569905201943
0.27440907558648	3.6251801975908	53.297952795847
0.27543299004762	0.86388294834883	52.185156866447
0.27645690450877	1.1995857761177	55.566302620907
0.27748081896991	3.6318505969179	53.887792977418
0.27850473343106	0.65488611704852	53.205013396739
0.27952864789220	1.4672185071876	56.540121280739
0.28055256235334	3.5972530352841	54.491580528969
0.28157647681449	0.46956138728227	54.272143412998
0.28260039127563	1.7511234788769	57.488514784887
0.28362430573677	3.5215329247855	55.116028030126
0.28464822019792	0.31313567996043	55.383456463111
0.28567213465906	2.0454862195733	58.409454964424
0.28669604912020	3.4057781620840	55.767852991750
0.28771996358135	0.19030864401055	56.535096948795
0.28874387804249	2.3441145777517	59.301811221831
0.28976779250363	3.2520241383416	56.453643323899
0.29079170696478	0.10514557943538	57.722519653202
0.29181562142592	2.6405730376480	60.165397521183
0.29283953588707	3.0632268365103	57.179707377310
0.29386345034821	0.060961920793076	58.940582023274
0.29488736480935	2.9283137164363	61.001013232747
0.29591127927050	2.8432153662185	57.951940016269
0.29693519373164	0.060224957562521	60.183659298804
0.29795910819278	3.2008154575784	61.810470742457
0.29898302265393	2.5966320207207	58.775704212233
0.30000693711507	0.10448846992876	61.445775714084
0.30103085157621	3.4517404355211	62.596588707488
0.30205476603736	2.3288506250765	59.655701523004
0.30307868049850	0.19432821232963	62.720739583580
0.30410259495964	3.6750786348126	63.363175344684
0.30512650942079	2.0458848569705	60.595867784791
0.30615042388193	0.32931386352943	64.002281524717
0.30717433834308	3.8652898855363	64.114968534644
0.30819825280422	1.7542583577752	61.599269597488
0.30922216726536	0.50797565476778	65.284209483472
0.31024608172651	4.0174305347089	64.857583148069
0.31126999618765	1.4608747556850	62.668043272779
0.31229391064879	0.72781986097005	66.560575368085
0.31331782510994	4.1272963069123	65.597427648610
0.31434173957108	1.1728891042917	63.803327292005
0.31536565403222	0.98535889123324	67.825811574944
0.31638956849337	4.1915238060437	66.341585010607
0.31741348295451	0.89753548320137	65.005225901844
0.31843739741565	1.2761475038346	69.074899356582
0.31946131187680	4.2076944709018	67.097714083002
0.32048522633794	0.64199037453829	66.272804905898
0.32150914079909	1.5948751699801	70.303503335742
0.32253305526023	4.1744206106850	67.873893515335
0.32355696972137	0.41320166505736	67.604085657786
0.32458088418252	1.9354443887533	71.508103564107
0.32560479864366	4.0913970392934	68.678479649501
0.32662871310480	0.21772476166085	68.996084272889
0.32765262756595	2.2910811476671	72.686122651689
0.32867654202709	3.9594392501707	69.519956596600
0.32970045648823	0.061569072164143	70.444876949555
0.33072437094938	2.6544742220740	73.836038896264
0.33174828541052	3.7805136502848	70.406773188453
0.33277219987167	-0.049939583291704	71.945668150921
0.33379611433281	3.0179195115998	74.957456517241
0.33482002879395	3.5577152894403	71.347167902950
0.33584394325510	-0.11231249743965	73.492898016608
0.33686785771624	3.3734744921083	76.051186648980
0.33789177217738	3.2952435468728	72.349014310902
0.33891568663853	-0.12201132757023	75.080364343550
0.33993960109967	3.7131317103840	77.119284164238
0.34096351556081	2.9983441420577	73.419653660291
0.34198743002196	-0.076559427947662	76.701358546878
0.34301134448310	4.0289858189987	78.165063878633
0.34403525894424	2.6732157679387	74.565745070107
0.34505917340539	0.025360951419701	78.348837487986
0.34608308786653	4.3134163680526	79.193116022894
0.34710700232768	2.3269276665816	75.793135656656
0.34813091678882	0.18386680551406	80.015583813396
0.34915483124996	4.5592704408921	80.209249216146
0.35017874571111	1.9672760862508	77.106715165233
0.35120266017225	0.39780808688738	81.694390537323
0.35222657463339	4.7600233642543	81.220452708724
0.35325048909454	1.6026434185335	78.510326351580
0.35427440355568	0.66476434496338	83.378258875092
0.35529831801682	4.9099558046976	82.234814061241
0.35632223247797	1.2418436701330	80.006671354192
0.35734614693911	0.98105790407223	85.060581634428
0.35837006140025	5.0043023001403	83.261403290176
0.35939397586140	0.89393209705064	81.597242634625
0.36041789032254	1.3417748196929	86.735343950268
0.36144180478369	5.0393825250974	84.310165858261
0.36246571924483	0.56802877680969	83.282305565360
0.36348963370597	1.7408531045597	88.397317692786
0.36451354816712	5.0127390549935	85.391760142101
0.36553746262826	0.27312117699679	85.060864883736
0.36656137708940	2.1711534748456	90.042232795536
0.36758529155055	4.9232152646771	86.517404292626
0.36860920601169	0.017862968604806	86.930705438719
0.36963312047283	2.6245913308919	91.666961715487
0.37065703493398	4.7710461176367	87.698694037518
0.37168094939512	-0.18961944549912	88.888427201777
0.37270486385627	3.0922705422431	93.269665934829
0.37372877831741	4.5578942142811	88.947413671474
0.37475269277855	-0.34192946050441	90.929532774994
0.37577660723970	3.5646475486110	94.849949089202
0.37680052170084	4.2868838477493	90.275350887147
0.37782443616198	-0.43256550657884	93.048529024017
0.37884835062313	4.0317214404061	96.408950882330
0.37987226508427	3.9625744302414	91.694075799409
0.38089617954541	-0.45612538607196	95.239063963332
0.38192009400656	4.4832130001557	97.949467577728
0.38294400846770	3.5909296949362	93.214775695963
0.38396792292884	-0.40843587179280	97.494102018446
0.38499183738999	4.9087971811554	99.476009857297
0.38601575185113	3.1792533603541	94.848050039850
0.38703966631228	-0.28668925282589	99.806105188476
0.38806358077342	5.2983267418797	100.99483576738
0.38908749523456	2.7360890815304	96.603715315523
0.39011140969571	-0.089571600572939	102.16722998925
0.39113532415685	5.6420332372130	102.51396436005
0.39215923861799	2.2710779821460	98.490659756623
0.39318315307914	0.18265530952528	104.56957982329
0.39420706754028	5.9307667835652	104.04316700767
0.39523098200142	1.7948143266867	100.51669720617
0.39625489646257	0.52810338576990	107.00545117205
